Time [s],Packet ID,Address,Data,Read/Write,ACK/NAK
0.051257,0,0x3C,0x03,Write,ACK
0.0559315,1,0x3D,0x01,Read,ACK
0.058083,1,0x3D,0x18,Read,ACK
0.0602335,1,0x3D,0x00,Read,ACK
0.0623845,1,0x3D,0xD6,Read,ACK
0.0645355,1,0x3D,0xFF,Read,ACK
0.0666865,1,0x3D,0x0D,Read,NAK
0.1246015,2,0x3C,0x03,Write,ACK
0.1292765,3,0x3D,0x01,Read,ACK
0.1314275,3,0x3D,0x1F,Read,ACK
0.133578,3,0x3D,0x00,Read,ACK
0.1357295,3,0x3D,0xDC,Read,ACK
0.1378805,3,0x3D,0xFF,Read,ACK
0.140031,3,0x3D,0x0E,Read,NAK
0.197941,4,0x3C,0x03,Write,ACK
0.2026165,5,0x3D,0x01,Read,ACK
0.204767,5,0x3D,0x20,Read,ACK
0.2069175,5,0x3D,0x00,Read,ACK
0.2090685,5,0x3D,0xDB,Read,ACK
0.211219,5,0x3D,0xFF,Read,ACK
0.213369,5,0x3D,0x15,Read,NAK
0.271283,6,0x3C,0x03,Write,ACK
0.2759585,7,0x3D,0x01,Read,ACK
0.278109,7,0x3D,0x2A,Read,ACK
0.2802605,7,0x3D,0x00,Read,ACK
0.282411,7,0x3D,0xD5,Read,ACK
0.2845615,7,0x3D,0xFF,Read,ACK
0.2867125,7,0x3D,0x18,Read,NAK
0.3446265,8,0x3C,0x03,Write,ACK
0.3493015,9,0x3D,0x01,Read,ACK
0.3514525,9,0x3D,0x2A,Read,ACK
0.3536035,9,0x3D,0x00,Read,ACK
0.3557535,9,0x3D,0xD5,Read,ACK
0.357905,9,0x3D,0xFF,Read,NAK
0.3598165,9,0x3D,0x0C,Read,ACK
0.4179725,10,0x3C,0x03,Write,ACK
0.422648,11,0x3D,0x01,Read,ACK
0.424799,11,0x3D,0x1D,Read,ACK
0.42695,11,0x3D,0x00,Read,ACK
0.4291005,11,0x3D,0xB9,Read,ACK
0.431251,11,0x3D,0xFE,Read,ACK
0.4913175,12,0x3C,0x03,Write,ACK
0.495993,13,0x3D,0x01,Read,ACK
0.4981435,13,0x3D,0x1F,Read,ACK
0.5002945,13,0x3D,0x00,Read,ACK
0.506508,14,0x7F,0x77,Read,NAK
0.5646625,15,0x3C,0x03,Write,ACK
0.5693375,16,0x3D,0x01,Read,ACK
0.571489,16,0x3D,0x22,Read,ACK
0.5734005,16,0x3D,0x00,Read,ACK
0.5755515,16,0x3D,0x52,Read,NAK
0.5777025,16,0x3D,0x7F,Read,ACK
0.579853,16,0x3D,0x74,Read,ACK
0.638005,17,0x3C,0x03,Write,ACK
0.64268,18,0x3D,0x01,Read,ACK
0.6448315,18,0x3D,0x29,Read,ACK
0.646982,18,0x3D,0x00,Read,ACK
0.649133,18,0x3D,0x9A,Read,ACK
0.651284,18,0x3D,0xFE,Read,ACK
0.6534345,18,0x3D,0xE9,Read,NAK
0.711348,19,0x3C,0x03,Write,ACK
0.716023,20,0x3D,0x01,Read,ACK
0.718174,20,0x3D,0x2B,Read,ACK
0.7203245,20,0x3D,0x00,Read,ACK
0.7224755,20,0x3D,0x90,Read,ACK
0.724626,20,0x3D,0xFE,Read,ACK
0.726777,20,0x3D,0xE2,Read,NAK
0.7846905,21,0x3C,0x03,Write,ACK
0.7893665,22,0x3D,0x01,Read,ACK
0.791517,22,0x3D,0x27,Read,ACK
0.7936685,22,0x3D,0x00,Read,ACK
0.795819,22,0x3D,0x89,Read,ACK
0.7979695,22,0x3D,0xFE,Read,ACK
0.8001205,22,0x3D,0xE0,Read,NAK
0.858034,23,0x3C,0x03,Write,ACK
0.8627095,24,0x3D,0x01,Read,ACK
0.8648605,24,0x3D,0x26,Read,ACK
0.8670115,24,0x3D,0x00,Read,ACK
0.8691625,24,0x3D,0x81,Read,ACK
0.8713135,24,0x3D,0xFE,Read,ACK
0.8734645,24,0x3D,0xD7,Read,NAK
0.9313795,25,0x3C,0x03,Write,ACK
0.9360545,26,0x3D,0x01,Read,ACK
0.938206,26,0x3D,0x22,Read,ACK
0.940356,26,0x3D,0x00,Read,ACK
0.9425075,26,0x3D,0x8A,Read,ACK
0.944658,26,0x3D,0xFE,Read,ACK
0.9468085,26,0x3D,0xEC,Read,NAK
1.0047235,27,0x3C,0x03,Write,ACK
1.0093995,28,0x3D,0x01,Read,ACK
1.01155,28,0x3D,0x24,Read,ACK
1.013701,28,0x3D,0x00,Read,ACK
1.0158515,28,0x3D,0x8A,Read,ACK
1.0180025,28,0x3D,0xFE,Read,ACK
1.020153,28,0x3D,0xD7,Read,NAK
1.0780645,29,0x3C,0x03,Write,ACK
1.0827405,30,0x3D,0x01,Read,ACK
1.084891,30,0x3D,0x20,Read,ACK
1.087042,30,0x3D,0x00,Read,ACK
1.0889535,30,0x3D,0x42,Read,ACK
1.091105,30,0x3D,0x7F,Read,ACK
1.0932555,30,0x3D,0x6A,Read,ACK
1.151409,31,0x3C,0x03,Write,ACK
1.1560845,32,0x3D,0x01,Read,ACK
1.1582355,32,0x3D,0x1C,Read,ACK
1.1601475,32,0x3D,0x00,Read,ACK
1.1622985,32,0x3D,0x43,Read,ACK
1.164449,32,0x3D,0x7F,Read,ACK
1.1666005,32,0x3D,0x69,Read,NAK
1.224751,33,0x3C,0x03,Write,ACK
1.229426,34,0x3D,0x01,Read,ACK
1.2315765,34,0x3D,0x1D,Read,ACK
1.2337275,34,0x3D,0x00,Read,ACK
1.235878,34,0x3D,0x84,Read,ACK
1.238029,34,0x3D,0xFE,Read,ACK
1.2401795,34,0x3D,0xD3,Read,NAK
1.2980935,35,0x3C,0x03,Write,ACK
1.302531,36,0x3E,0x00,Write,NAK
1.304682,36,0x3E,0x0F,Write,NAK
1.306594,36,0x3E,0x00,Write,ACK
1.308745,36,0x3E,0x20,Write,NAK
1.3108965,36,0x3E,0xBF,Write,NAK
1.3130475,36,0x3E,0x35,Write,ACK
1.3714415,37,0x3C,0x03,Write,ACK
1.3758785,38,0x1E,0x00,Write,NAK
1.3780295,38,0x1E,0x0E,Write,NAK
1.380181,38,0x1E,0x00,Write,ACK
1.382332,38,0x1E,0x41,Write,NAK
1.384483,38,0x1E,0x7F,Write,ACK
1.386634,38,0x1E,0x69,Write,NAK
1.4447945,39,0x3C,0x03,Write,ACK
1.4494705,40,0x3D,0x01,Read,ACK
1.4516215,40,0x3D,0x1E,Read,ACK
1.453773,40,0x3D,0x00,Read,ACK
1.4559245,40,0x3D,0x83,Read,ACK
1.4580755,40,0x3D,0xFE,Read,ACK
1.460227,40,0x3D,0xD2,Read,NAK
1.7573385,41,0x3C,0x01,Write,ACK
1.7605375,41,0x3C,0x04,Write,ACK
1.762873,41,0x3C,0x00,Write,ACK
1.765024,41,0x3C,0x18,Write,ACK
1.831668,42,0x3C,0x03,Write,ACK
1.836344,43,0x3D,0x01,Read,ACK
1.838495,43,0x3D,0x21,Read,ACK
1.8406465,43,0x3D,0x00,Read,ACK
1.8427975,43,0x3D,0x82,Read,ACK
1.8449485,43,0x3D,0xFE,Read,ACK
1.8471,43,0x3D,0xD4,Read,NAK
1.911368,45,0x80,0x87,Write,ACK
1.9135185,45,0x80,0x00,Write,ACK
1.9156695,45,0x80,0x21,Write,ACK
1.9178205,45,0x80,0x3F,Write,NAK
1.9199715,45,0x80,0x34,Write,NAK
1.9830425,47,0x3D,0x01,Read,ACK
1.985194,47,0x3D,0x21,Read,ACK
1.9873445,47,0x3D,0x00,Read,ACK
1.989495,47,0x3D,0x84,Read,ACK
1.9916465,47,0x3D,0xFE,Read,ACK
1.9937975,47,0x3D,0xD5,Read,NAK
2.0517145,48,0x3C,0x03,Write,ACK
2.056151,49,0x1E,0x00,Write,NAK
2.0583025,49,0x1E,0x10,Write,ACK
2.060453,49,0x1E,0x00,Write,ACK
2.062604,49,0x1E,0x40,Write,NAK
2.0647545,49,0x1E,0x7F,Write,ACK
2.066905,49,0x1E,0x6B,Write,ACK
2.1250635,50,0x3C,0x03,Write,ACK
2.129739,51,0x3D,0x01,Read,ACK
2.13189,51,0x3D,0x20,Read,ACK
2.1340405,51,0x3D,0x00,Read,ACK
2.1361915,51,0x3D,0x88,Read,ACK
2.1383425,51,0x3D,0xFE,Read,ACK
2.1404935,51,0x3D,0xD9,Read,NAK
2.198412,52,0x3C,0x03,Write,NAK
2.203088,53,0x3D,0x01,Read,ACK
2.2052385,53,0x3D,0x22,Read,ACK
2.2073895,53,0x3D,0x00,Read,ACK
2.2095405,53,0x3D,0x83,Read,ACK
2.211691,53,0x3D,0xFE,Read,ACK
2.213842,53,0x3D,0xD7,Read,NAK
2.271516,54,0x1E,0x01,Write,NAK
2.2764305,55,0x3D,0x01,Read,ACK
2.278582,55,0x3D,0x22,Read,ACK
2.280732,55,0x3D,0x00,Read,ACK
2.2828835,55,0x3D,0x83,Read,ACK
2.285034,55,0x3D,0xFE,Read,ACK
2.287185,55,0x3D,0xD7,Read,NAK
2.3450975,56,0x3C,0x03,Write,ACK
2.3497735,57,0x3D,0x01,Read,ACK
2.3519245,57,0x3D,0x26,Read,ACK
2.354076,57,0x3D,0x00,Read,ACK
2.3562265,57,0x3D,0x7F,Read,ACK
2.3583775,57,0x3D,0xFE,Read,ACK
2.3605285,57,0x3D,0xD9,Read,NAK
2.4184415,58,0x3C,0x03,Write,ACK
2.4231175,59,0x3D,0x01,Read,ACK
2.425268,59,0x3D,0x25,Read,ACK
2.427419,59,0x3D,0x00,Read,ACK
2.4295705,59,0x3D,0x81,Read,ACK
2.431721,59,0x3D,0xFE,Read,ACK
2.433872,59,0x3D,0xD9,Read,NAK
2.491784,60,0x3C,0x03,Write,ACK
2.4964595,61,0x3D,0x01,Read,ACK
2.4986095,61,0x3D,0x25,Read,ACK
2.5007605,61,0x3D,0x00,Read,ACK
2.502911,61,0x3D,0x80,Read,ACK
2.5050615,61,0x3D,0xFE,Read,ACK
2.5072125,61,0x3D,0xD5,Read,NAK
2.5651235,62,0x3C,0x03,Write,ACK
2.569799,63,0x3D,0x01,Read,ACK
2.57195,63,0x3D,0x26,Read,ACK
2.574101,63,0x3D,0x00,Read,ACK
2.5762515,63,0x3D,0x7E,Read,ACK
2.578402,63,0x3D,0xFE,Read,ACK
2.580553,63,0x3D,0xD6,Read,NAK
2.638465,64,0x3C,0x03,Write,ACK
2.6431405,65,0x3D,0x01,Read,ACK
2.6452915,65,0x3D,0x20,Read,ACK
2.647442,65,0x3D,0x00,Read,ACK
2.649593,65,0x3D,0x83,Read,ACK
2.6517435,65,0x3D,0xFE,Read,ACK
2.6538945,65,0x3D,0xDA,Read,NAK
2.71181,66,0x3C,0x03,Write,ACK
2.7164855,67,0x3D,0x01,Read,ACK
2.7186365,67,0x3D,0x26,Read,ACK
2.720787,67,0x3D,0x00,Read,ACK
2.7229385,67,0x3D,0x87,Read,ACK
2.7250895,67,0x3D,0xFE,Read,ACK
2.72724,67,0x3D,0xDB,Read,NAK
2.785155,68,0x3C,0x03,Write,ACK
2.78983,69,0x3D,0x01,Read,ACK
2.791981,69,0x3D,0x29,Read,ACK
2.7941315,69,0x3D,0x00,Read,ACK
2.7962825,69,0x3D,0x8D,Read,ACK
2.798433,69,0x3D,0xFE,Read,ACK
2.8005835,69,0x3D,0xE0,Read,NAK
2.858493,70,0x3C,0x03,Write,ACK
2.8631675,71,0x3D,0x01,Read,ACK
2.865318,71,0x3D,0x2C,Read,ACK
2.8674685,71,0x3D,0x00,Read,ACK
2.8696195,71,0x3D,0x8F,Read,ACK
2.87177,71,0x3D,0xFE,Read,ACK
2.873921,71,0x3D,0xE7,Read,NAK
2.931834,72,0x3C,0x03,Write,ACK
2.936509,73,0x3D,0x01,Read,ACK
2.93866,73,0x3D,0x2D,Read,ACK
2.940811,73,0x3D,0x00,Read,ACK
2.9458295,74,0xC3,0xF3,Read,NAK
3.0051775,75,0x3C,0x03,Write,ACK
3.0098525,76,0x3D,0x01,Read,ACK
3.012004,76,0x3D,0x2D,Read,ACK
3.0141545,76,0x3D,0x00,Read,ACK
3.016305,76,0x3D,0x98,Read,ACK
3.018456,76,0x3D,0xFE,Read,ACK
3.0206065,76,0x3D,0xEE,Read,NAK
3.0785195,77,0x3C,0x03,Write,ACK
3.0831945,78,0x3D,0x01,Read,ACK
3.085345,78,0x3D,0x25,Read,ACK
3.087496,78,0x3D,0x00,Read,ACK
3.0896465,78,0x3D,0xAA,Read,ACK
3.091797,78,0x3D,0xFE,Read,ACK
3.093948,78,0x3D,0xFC,Read,NAK
3.1518595,79,0x3C,0x03,Write,ACK
3.1565345,80,0x3D,0x01,Read,ACK
3.158686,80,0x3D,0x22,Read,ACK
3.160837,80,0x3D,0x00,Read,ACK
3.1629875,80,0x3D,0xAD,Read,ACK
3.1651385,80,0x3D,0xFE,Read,ACK
3.167289,80,0x3D,0xFD,Read,NAK
3.2252015,81,0x3C,0x03,Write,ACK
3.2298765,82,0x3D,0x01,Read,ACK
3.2320275,82,0x3D,0x21,Read,ACK
3.234178,82,0x3D,0x00,Read,ACK
3.2363285,82,0x3D,0xB0,Read,ACK
3.2384795,82,0x3D,0xFE,Read,ACK
3.24063,82,0x3D,0xFD,Read,NAK
3.298544,83,0x3C,0x03,Write,ACK
3.3032195,84,0x3D,0x01,Read,ACK
3.30537,84,0x3D,0x20,Read,ACK
3.307521,84,0x3D,0x00,Read,ACK
3.3096715,84,0x3D,0xAD,Read,ACK
3.3118225,84,0x3D,0xFE,Read,ACK
3.313973,84,0x3D,0xFA,Read,NAK
3.3718865,85,0x3C,0x03,Write,ACK
3.376562,86,0x3D,0x01,Read,ACK
3.3787125,86,0x3D,0x21,Read,ACK
3.3808635,86,0x3D,0x00,Read,ACK
3.383014,86,0x3D,0xA9,Read,ACK
3.385165,86,0x3D,0xFE,Read,ACK
3.387316,86,0x3D,0xFB,Read,NAK
3.445228,87,0x3C,0x03,Write,ACK
3.449664,88,0x3E,0x00,Write,NAK
3.4518145,88,0x3E,0x11,Write,NAK
3.4539655,88,0x3E,0x00,Write,ACK
3.455997,88,0x3E,0x2B,Write,ACK
3.4580275,88,0x3E,0xBF,Write,NAK
3.4601785,88,0x3E,0x3E,Write,ACK
3.5183305,89,0x3E,0x01,Write,NAK
3.523245,90,0x3D,0x01,Read,ACK
3.5253955,90,0x3D,0x23,Read,ACK
3.527546,90,0x3D,0x00,Read,ACK
3.529697,90,0x3D,0xAD,Read,ACK
3.531848,90,0x3D,0xFE,Read,ACK
3.5339985,90,0x3D,0xFD,Read,NAK
3.591911,91,0x3C,0x03,Write,ACK
3.596586,92,0x3D,0x01,Read,ACK
3.598737,92,0x3D,0x22,Read,ACK
3.600888,92,0x3D,0x00,Read,ACK
3.603038,92,0x3D,0xAB,Read,ACK
3.605189,92,0x3D,0xFE,Read,ACK
3.6073395,92,0x3D,0xFD,Read,NAK
3.665252,93,0x3C,0x03,Write,ACK
3.669688,94,0x3D,0x00,Read,NAK
3.671839,94,0x3D,0x10,Read,NAK
3.67399,94,0x3D,0x00,Read,ACK
3.676141,94,0x3D,0x55,Read,ACK
3.678292,94,0x3D,0x7F,Read,ACK
3.680443,94,0x3D,0x7E,Read,ACK
3.7385965,95,0x3C,0x03,Write,ACK
3.743272,96,0x3D,0x01,Read,ACK
3.7454225,96,0x3D,0x23,Read,ACK
3.7475735,96,0x3D,0x00,Read,ACK
3.749724,96,0x3D,0xA7,Read,ACK
3.751875,96,0x3D,0xFE,Read,ACK
3.754026,96,0x3D,0xF4,Read,NAK
3.8119425,97,0x3C,0x03,Write,ACK
3.816618,98,0x3D,0x01,Read,ACK
3.818769,98,0x3D,0x1D,Read,ACK
3.8209195,98,0x3D,0x00,Read,ACK
3.823071,98,0x3D,0xA4,Read,ACK
3.825222,98,0x3D,0xFE,Read,ACK
3.827373,98,0x3D,0xF0,Read,NAK
3.8852885,99,0x3C,0x03,Write,ACK
3.889964,100,0x3D,0x01,Read,ACK
3.8921145,100,0x3D,0x1F,Read,ACK
3.8942655,100,0x3D,0x00,Read,ACK
3.896416,100,0x3D,0xA2,Read,ACK
3.8985665,100,0x3D,0xFE,Read,ACK
3.9007175,100,0x3D,0xF4,Read,NAK
3.9586325,101,0x3C,0x03,Write,ACK
3.963308,102,0x3D,0x01,Read,ACK
3.965459,102,0x3D,0x1D,Read,ACK
3.9676095,102,0x3D,0x00,Read,ACK
3.96976,102,0x3D,0xA9,Read,ACK
3.971911,102,0x3D,0xFE,Read,ACK
3.9740615,102,0x3D,0xF1,Read,NAK
4.031975,103,0x3C,0x03,Write,ACK
4.0366505,104,0x3D,0x01,Read,ACK
4.038801,104,0x3D,0x1F,Read,ACK
4.040952,104,0x3D,0x00,Read,ACK
4.043103,104,0x3D,0xAA,Read,ACK
4.0452535,104,0x3D,0xFE,Read,ACK
4.0474045,104,0x3D,0xF3,Read,NAK
4.1053165,105,0x3C,0x03,Write,ACK
4.1099925,106,0x3D,0x01,Read,ACK
4.112143,106,0x3D,0x21,Read,ACK
4.1142935,106,0x3D,0x00,Read,ACK
4.1164445,106,0x3D,0xA5,Read,ACK
4.1185955,106,0x3D,0xFE,Read,ACK
4.120746,106,0x3D,0xF1,Read,NAK
4.1786615,107,0x3C,0x01,Write,NAK
4.183337,108,0x3D,0x01,Read,ACK
4.185488,108,0x3D,0x23,Read,ACK
4.1876385,108,0x3D,0x00,Read,ACK
4.1897895,108,0x3D,0xA1,Read,ACK
4.1919405,108,0x3D,0xFE,Read,ACK
4.194091,108,0x3D,0xF2,Read,NAK
4.252008,109,0x3C,0x03,Write,ACK
4.2566835,110,0x3D,0x00,Read,NAK
4.2585955,110,0x3D,0x15,Read,ACK
4.260747,110,0x3D,0x00,Read,ACK
4.2628975,110,0x3D,0x51,Read,NAK
4.2650485,110,0x3D,0x7F,Read,ACK
4.2671995,110,0x3D,0x79,Read,ACK
4.325353,111,0x3C,0x03,Write,ACK
4.3300285,112,0x3D,0x01,Read,ACK
4.33218,112,0x3D,0x24,Read,ACK
4.3343305,112,0x3D,0x00,Read,ACK
4.336481,112,0x3D,0xA1,Read,ACK
4.3386325,112,0x3D,0xFE,Read,ACK
4.340783,112,0x3D,0xF1,Read,NAK
4.398699,113,0x3C,0x03,Write,ACK
4.4033745,114,0x3D,0x01,Read,ACK
4.4055255,114,0x3D,0x25,Read,ACK
4.4076765,114,0x3D,0x00,Read,ACK
4.409828,114,0x3D,0xA1,Read,ACK
4.4119785,114,0x3D,0xFE,Read,ACK
4.4141295,114,0x3D,0xF2,Read,NAK
4.4720435,115,0x3C,0x03,Write,ACK
4.4767185,116,0x3D,0x01,Read,ACK
4.4788695,116,0x3D,0x25,Read,ACK
4.48102,116,0x3D,0x00,Read,ACK
4.4831705,116,0x3D,0xA5,Read,ACK
4.485322,116,0x3D,0xFE,Read,ACK
4.4874725,116,0x3D,0xF4,Read,NAK
4.545387,117,0x3C,0x03,Write,ACK
4.5500625,118,0x3D,0x01,Read,ACK
4.552213,118,0x3D,0x21,Read,ACK
4.554364,118,0x3D,0x00,Read,ACK
4.5565145,118,0x3D,0xA4,Read,ACK
4.5586655,118,0x3D,0xFF,Read,ACK
4.560577,118,0x3D,0x7B,Read,ACK
4.6184925,119,0x3E,0x01,Write,NAK
4.623407,120,0x3D,0x01,Read,ACK
4.6255575,120,0x3D,0x24,Read,ACK
4.627708,120,0x3D,0x00,Read,ACK
4.6298595,120,0x3D,0xA8,Read,ACK
4.63201,120,0x3D,0xFE,Read,ACK
4.634161,120,0x3D,0xF3,Read,NAK
4.6920745,121,0x3C,0x03,Write,ACK
4.69675,122,0x3D,0x01,Read,ACK
4.6989005,122,0x3D,0x27,Read,ACK
4.701052,122,0x3D,0x00,Read,ACK
4.7032025,122,0x3D,0xA7,Read,ACK
4.7053535,122,0x3D,0xFE,Read,ACK
4.707505,122,0x3D,0xF7,Read,NAK
4.765419,123,0x3C,0x03,Write,ACK
4.7700945,124,0x3D,0x01,Read,ACK
4.772245,124,0x3D,0x24,Read,ACK
4.774396,124,0x3D,0x00,Read,ACK
4.7765465,124,0x3D,0xA5,Read,ACK
4.7786975,124,0x3D,0xFE,Read,ACK
4.7808485,124,0x3D,0xF2,Read,NAK
4.8387625,125,0x3C,0x03,Write,ACK
4.8434375,126,0x3D,0x01,Read,ACK
4.845589,126,0x3D,0x21,Read,ACK
4.8475005,126,0x3D,0x00,Read,ACK
4.8534755,127,0x9F,0x9E,Read,NAK
4.9121105,128,0x3C,0x03,Write,ACK
4.916786,129,0x3D,0x01,Read,ACK
4.9189375,129,0x3D,0x26,Read,ACK
4.921088,129,0x3D,0x00,Read,ACK
4.923239,129,0x3D,0xA7,Read,ACK
4.92539,129,0x3D,0xFE,Read,ACK
4.9275405,129,0x3D,0xF0,Read,NAK
4.985454,130,0x3C,0x03,Write,ACK
4.99013,131,0x3D,0x01,Read,ACK
4.9922815,131,0x3D,0x25,Read,ACK
4.994432,131,0x3D,0x00,Read,ACK
4.996583,131,0x3D,0xA8,Read,ACK
4.998734,131,0x3D,0xFE,Read,ACK
5.0008845,131,0x3D,0xF3,Read,NAK
5.0588005,132,0x3C,0x03,Write,ACK
5.0634765,133,0x3D,0x01,Read,ACK
5.0656275,133,0x3D,0x25,Read,ACK
5.0677785,133,0x3D,0x00,Read,ACK
5.0699295,133,0x3D,0xA8,Read,ACK
5.07208,133,0x3D,0xFE,Read,ACK
5.074231,133,0x3D,0xF1,Read,NAK
5.1321445,134,0x3C,0x01,Write,NAK
5.1368195,135,0x3D,0x01,Read,ACK
5.138971,135,0x3D,0x25,Read,ACK
5.1411215,135,0x3D,0x00,Read,ACK
5.143272,135,0x3D,0xA8,Read,ACK
5.145423,135,0x3D,0xFE,Read,ACK
5.1475735,135,0x3D,0xF1,Read,NAK
5.205487,136,0x3C,0x03,Write,ACK
