Time [s],Packet ID,Address,Data,Read/Write,ACK/NAK
0.0567015,0,0x3C,0x03,Write,ACK
0.0613765,1,0x3D,0xFF,Read,ACK
0.0635275,1,0x3D,0x62,Read,ACK
0.065678,1,0x3D,0x00,Read,ACK
0.067829,1,0x3D,0xE7,Read,ACK
0.0699795,1,0x3D,0xFF,Read,ACK
0.0721305,1,0x3D,0x9C,Read,NAK
0.1300425,2,0x3C,0x03,Write,ACK
0.1347175,3,0x3D,0xFF,Read,ACK
0.1368685,3,0x3D,0x62,Read,ACK
0.139019,3,0x3D,0x00,Read,ACK
0.14117,3,0x3D,0xE7,Read,ACK
0.1433205,3,0x3D,0xFF,Read,ACK
0.1454715,3,0x3D,0x9C,Read,NAK
0.2033845,4,0x3C,0x03,Write,ACK
0.20806,5,0x3D,0xFF,Read,ACK
0.21021,5,0x3D,0x57,Read,ACK
0.212361,5,0x3D,0x00,Read,ACK
0.214512,5,0x3D,0xEB,Read,ACK
0.2166625,5,0x3D,0xFF,Read,ACK
0.2188135,5,0x3D,0xA3,Read,NAK
0.276726,6,0x3C,0x03,Write,ACK
0.2814015,7,0x3D,0xFF,Read,ACK
0.283552,7,0x3D,0x53,Read,ACK
0.285703,7,0x3D,0x00,Read,ACK
0.2921555,8,0xFF,0xA3,Read,NAK
0.3500695,9,0x3C,0x03,Write,ACK
0.3547445,10,0x3D,0xFF,Read,ACK
0.3568955,10,0x3D,0x50,Read,ACK
0.3590465,10,0x3D,0x00,Read,ACK
0.361197,10,0x3D,0xF2,Read,ACK
0.363348,10,0x3D,0xFF,Read,ACK
0.365499,10,0x3D,0xA4,Read,NAK
0.423411,11,0x3C,0x03,Write,ACK
0.4280865,12,0x3D,0xFF,Read,ACK
0.4302375,12,0x3D,0x49,Read,ACK
0.432388,12,0x3D,0x00,Read,ACK
0.434539,12,0x3D,0xF5,Read,ACK
0.4366895,12,0x3D,0xFF,Read,ACK
0.438841,12,0x3D,0x9F,Read,NAK
0.496756,13,0x3C,0x03,Write,ACK
0.5014315,14,0x3D,0xFF,Read,ACK
0.5035825,14,0x3D,0x3D,Read,ACK
0.505734,14,0x3D,0x00,Read,ACK
0.5078845,14,0x3D,0xFD,Read,NAK
0.5097965,14,0x3D,0x7F,Read,NAK
0.5119475,14,0x3D,0x4F,Read,NAK
0.5701015,15,0x3C,0x03,Write,ACK
0.5747775,16,0x3D,0xFF,Read,ACK
0.576928,16,0x3D,0x41,Read,ACK
0.5790785,16,0x3D,0x00,Read,ACK
0.5812295,16,0x3D,0xFD,Read,ACK
0.5833805,16,0x3D,0xFF,Read,ACK
0.5855315,16,0x3D,0x9C,Read,NAK
0.6434455,17,0x3C,0x03,Write,ACK
0.648121,18,0x3D,0xFF,Read,ACK
0.650272,18,0x3D,0x3D,Read,ACK
0.652423,18,0x3D,0x00,Read,ACK
0.6545735,18,0x3D,0xFB,Read,ACK
0.656724,18,0x3D,0xFF,Read,ACK
0.658875,18,0x3D,0x92,Read,NAK
0.71679,19,0x3C,0x03,Write,ACK
0.721465,20,0x3D,0xFF,Read,ACK
0.7236165,20,0x3D,0x46,Read,ACK
0.725767,20,0x3D,0x00,Read,ACK
0.727918,20,0x3D,0xF3,Read,ACK
0.730069,20,0x3D,0xFF,Read,ACK
0.73222,20,0x3D,0x80,Read,NAK
0.7901325,21,0x3C,0x03,Write,ACK
0.794808,22,0x3D,0xFF,Read,ACK
0.7969585,22,0x3D,0x51,Read,ACK
0.799109,22,0x3D,0x00,Read,ACK
0.8012595,22,0x3D,0xED,Read,ACK
0.8034105,22,0x3D,0xFF,Read,ACK
0.8055615,22,0x3D,0x73,Read,NAK
0.8634735,23,0x3C,0x03,Write,ACK
0.8681485,24,0x3D,0xFF,Read,ACK
0.870299,24,0x3D,0x51,Read,ACK
0.8724495,24,0x3D,0x00,Read,ACK
0.8746,24,0x3D,0xE1,Read,ACK
0.876751,24,0x3D,0xFF,Read,ACK
0.8789015,24,0x3D,0x6B,Read,NAK
0.936814,25,0x3C,0x03,Write,ACK
0.9414895,26,0x3D,0xFF,Read,ACK
0.9436405,26,0x3D,0x49,Read,ACK
0.945791,26,0x3D,0x00,Read,ACK
0.947942,26,0x3D,0xE8,Read,ACK
0.9500925,26,0x3D,0xFF,Read,ACK
0.9522435,26,0x3D,0x6C,Read,NAK
1.010155,27,0x3C,0x03,Write,ACK
1.0148305,28,0x3D,0xFF,Read,ACK
1.016981,28,0x3D,0x30,Read,ACK
1.019132,28,0x3D,0x00,Read,ACK
1.021283,28,0x3D,0xE4,Read,ACK
1.0234335,28,0x3D,0xFF,Read,ACK
1.025584,28,0x3D,0x6D,Read,NAK
1.0834945,29,0x3C,0x03,Write,ACK
1.0881695,30,0x3D,0xFF,Read,ACK
1.09032,30,0x3D,0x0C,Read,ACK
1.092471,30,0x3D,0x00,Read,ACK
1.0946215,30,0x3D,0xF1,Read,ACK
1.0967725,30,0x3D,0xFF,Read,ACK
1.098923,30,0x3D,0x78,Read,NAK
1.156836,31,0x3C,0x03,Write,ACK
1.1615115,32,0x3D,0xFE,Read,ACK
1.163662,32,0x3D,0xD3,Read,ACK
1.1658125,32,0x3D,0x01,Read,ACK
1.167964,32,0x3D,0x05,Read,ACK
1.170115,32,0x3D,0xFF,Read,ACK
1.1722655,32,0x3D,0x80,Read,NAK
1.230177,33,0x3C,0x03,Write,ACK
1.234852,34,0x3D,0xFF,Read,ACK
1.236764,34,0x3D,0x42,Read,NAK
1.2389145,34,0x3D,0x00,Read,NAK
1.2410655,34,0x3D,0x0E,Read,NAK
1.243216,34,0x3D,0x7F,Read,NAK
1.245128,34,0x3D,0xA3,Read,NAK
1.3035165,35,0x3C,0x03,Write,ACK
1.3081915,36,0x3D,0xFE,Read,ACK
1.314166,37,0x80,0x8E,Write,NAK
1.316317,37,0x80,0x3F,Write,NAK
1.3184675,37,0x80,0xA6,Write,NAK
1.3768605,38,0x3C,0x03,Write,ACK
1.381536,39,0x3D,0xFD,Read,ACK
1.383687,39,0x3D,0xEB,Read,ACK
1.385838,39,0x3D,0x01,Read,ACK
1.387989,39,0x3D,0x53,Read,ACK
1.3901395,39,0x3D,0xFF,Read,ACK
1.392291,39,0x3D,0xB3,Read,NAK
1.450202,40,0x3C,0x03,Write,ACK
1.4548765,41,0x3D,0xFD,Read,ACK
1.457027,41,0x3D,0x7A,Read,ACK
1.4591775,41,0x3D,0x01,Read,ACK
1.4613285,41,0x3D,0x6D,Read,ACK
1.4634795,41,0x3D,0xFF,Read,ACK
1.4656305,41,0x3D,0xC9,Read,NAK
1.523542,42,0x3C,0x03,Write,ACK
1.528217,43,0x3D,0xFD,Read,ACK
1.530368,43,0x3D,0x12,Read,ACK
1.5325185,43,0x3D,0x01,Read,ACK
1.534669,43,0x3D,0x81,Read,ACK
1.53682,43,0x3D,0xFF,Read,ACK
1.538971,43,0x3D,0xD1,Read,NAK
1.5968815,44,0x3C,0x03,Write,ACK
1.60323,45,0xBF,0xAD,Read,NAK
1.605381,45,0xBF,0x00,Read,ACK
1.607532,45,0xBF,0xA4,Read,NAK
1.609683,45,0xBF,0x3F,Read,NAK
1.6118335,45,0xBF,0xB1,Read,ACK
1.670225,46,0x3C,0x03,Write,ACK
1.6749,47,0x3D,0xFC,Read,ACK
1.677051,47,0x3D,0x21,Read,ACK
1.679202,47,0x3D,0x01,Read,ACK
1.6813525,47,0x3D,0x95,Read,ACK
1.6835035,47,0x3D,0xFF,Read,ACK
1.685654,47,0x3D,0xC4,Read,NAK
1.7435685,48,0x3C,0x03,Write,ACK
1.748244,49,0x3D,0xFA,Read,ACK
1.7503945,49,0x3D,0xC1,Read,ACK
1.7525455,49,0x3D,0x01,Read,ACK
1.7546965,49,0x3D,0xA9,Read,ACK
1.756847,49,0x3D,0xFF,Read,ACK
1.758998,49,0x3D,0xA1,Read,NAK
1.816913,50,0x3C,0x03,Write,ACK
1.8215885,51,0x3D,0xFA,Read,ACK
1.8237395,51,0x3D,0x27,Read,ACK
1.8258905,51,0x3D,0x01,Read,ACK
1.828042,51,0x3D,0x9E,Read,ACK
1.8301925,51,0x3D,0xFF,Read,ACK
1.8323435,51,0x3D,0x76,Read,NAK
1.8902585,52,0x3C,0x03,Write,ACK
1.894934,53,0x3D,0xFB,Read,ACK
1.897085,53,0x3D,0x10,Read,ACK
1.8992355,53,0x3D,0x01,Read,ACK
1.9013865,53,0x3D,0xB4,Read,ACK
1.9035375,53,0x3D,0xFF,Read,ACK
1.9056885,53,0x3D,0x79,Read,NAK
1.9636035,54,0x3C,0x03,Write,ACK
1.968279,55,0x3D,0xFB,Read,ACK
1.97043,55,0x3D,0xD4,Read,ACK
1.972581,55,0x3D,0x01,Read,ACK
1.974732,55,0x3D,0xB4,Read,ACK
1.976883,55,0x3D,0xFF,Read,ACK
1.9790335,55,0x3D,0x82,Read,NAK
2.0369485,56,0x3C,0x03,Write,ACK
2.0416235,57,0x3D,0xFB,Read,ACK
2.0437745,57,0x3D,0xDE,Read,ACK
2.0459255,57,0x3D,0x01,Read,ACK
2.0480765,57,0x3D,0xB8,Read,ACK
2.050227,57,0x3D,0xFF,Read,ACK
2.052378,57,0x3D,0x86,Read,NAK
2.1102935,58,0x3C,0x03,Write,ACK
2.1149695,59,0x3D,0xFB,Read,ACK
2.11712,59,0x3D,0xBF,Read,ACK
2.119271,59,0x3D,0x01,Read,ACK
2.121422,59,0x3D,0xB0,Read,ACK
2.1235735,59,0x3D,0xFF,Read,ACK
2.1257245,59,0x3D,0x8A,Read,NAK
2.183641,60,0x3C,0x03,Write,ACK
2.1883165,61,0x3D,0xFB,Read,ACK
2.190467,61,0x3D,0xE3,Read,ACK
2.192618,61,0x3D,0x01,Read,ACK
2.194769,61,0x3D,0xAE,Read,ACK
2.19692,61,0x3D,0xFF,Read,ACK
2.1990705,61,0x3D,0x88,Read,NAK
2.256986,62,0x3C,0x03,Write,ACK
2.2616615,63,0x3D,0xFB,Read,ACK
2.263812,63,0x3D,0xE3,Read,ACK
2.265963,63,0x3D,0x01,Read,ACK
2.268114,63,0x3D,0xAE,Read,ACK
2.2702645,63,0x3D,0xFF,Read,ACK
2.272416,63,0x3D,0x88,Read,NAK
2.3303335,64,0x3C,0x03,Write,ACK
2.3350095,65,0x3D,0xFB,Read,ACK
2.3371605,65,0x3D,0xF1,Read,ACK
2.3393115,65,0x3D,0x01,Read,ACK
2.3414625,65,0x3D,0xB5,Read,ACK
2.3436135,65,0x3D,0xFF,Read,ACK
2.345764,65,0x3D,0x86,Read,NAK
2.4036805,66,0x3C,0x03,Write,ACK
2.4083555,67,0x3D,0xFB,Read,ACK
2.410506,67,0x3D,0xD1,Read,ACK
2.4126575,67,0x3D,0x01,Read,ACK
2.4148085,67,0x3D,0xA7,Read,ACK
2.416959,67,0x3D,0xFF,Read,ACK
2.41911,67,0x3D,0x89,Read,NAK
2.4770265,68,0x3C,0x03,Write,ACK
2.481702,69,0x3D,0xFB,Read,ACK
2.483853,69,0x3D,0xBC,Read,ACK
2.4860045,69,0x3D,0x01,Read,ACK
2.4881555,69,0x3D,0x9A,Read,ACK
2.490306,69,0x3D,0xFF,Read,ACK
2.492457,69,0x3D,0x8F,Read,NAK
2.5503775,70,0x3C,0x03,Write,ACK
2.555053,71,0x3D,0xFB,Read,ACK
2.557204,71,0x3D,0xDE,Read,ACK
2.559355,71,0x3D,0x01,Read,ACK
2.5615055,71,0x3D,0x9D,Read,ACK
2.5636565,71,0x3D,0xFF,Read,ACK
2.565807,71,0x3D,0x97,Read,NAK
2.6237245,72,0x3C,0x03,Write,ACK
2.6284005,73,0x3D,0xFC,Read,ACK
2.6305515,73,0x3D,0x06,Read,ACK
2.632702,73,0x3D,0x01,Read,ACK
2.6348535,73,0x3D,0xA9,Read,ACK
2.6370045,73,0x3D,0xFF,Read,ACK
2.6391555,73,0x3D,0x9E,Read,NAK
2.6970755,74,0x3C,0x03,Write,ACK
2.701751,75,0x3D,0xFC,Read,ACK
2.7039025,75,0x3D,0x08,Read,ACK
2.7060535,75,0x3D,0x01,Read,ACK
2.7082045,75,0x3D,0xAD,Read,ACK
2.710355,75,0x3D,0xFF,Read,ACK
2.7125065,75,0x3D,0x9B,Read,NAK
2.7704265,76,0x3C,0x03,Write,ACK
2.775102,77,0x3D,0xFC,Read,ACK
2.777253,77,0x3D,0x0B,Read,ACK
2.779404,77,0x3D,0x01,Read,ACK
2.781555,77,0x3D,0xAC,Read,ACK
2.7837055,77,0x3D,0xFF,Read,ACK
2.7858565,77,0x3D,0xA0,Read,NAK
2.8437745,78,0x3C,0x03,Write,NAK
2.84845,79,0x3D,0xFC,Read,ACK
2.850601,79,0x3D,0x25,Read,ACK
2.852752,79,0x3D,0x01,Read,ACK
2.854903,79,0x3D,0x9C,Read,ACK
2.857054,79,0x3D,0xFF,Read,ACK
2.859205,79,0x3D,0xA8,Read,NAK
2.917121,80,0x3C,0x03,Write,ACK
2.921558,81,0x3E,0x7E,Write,ACK
2.923709,81,0x3E,0x21,Write,ACK
2.92586,81,0x3E,0x00,Write,NAK
2.9280105,81,0x3E,0x49,Write,NAK
2.9301615,81,0x3E,0x7F,Write,NAK
2.932312,81,0x3E,0x56,Write,NAK
2.990468,82,0x3C,0x03,Write,ACK
2.995144,83,0x3D,0xFC,Read,ACK
2.9972945,83,0x3D,0x42,Read,ACK
2.9994455,83,0x3D,0x01,Read,ACK
3.0015965,83,0x3D,0x93,Read,ACK
3.0037475,83,0x3D,0xFF,Read,ACK
3.0058985,83,0x3D,0xAD,Read,NAK
3.063815,84,0x3C,0x03,Write,ACK
3.068491,85,0x3D,0xFC,Read,ACK
3.0706415,85,0x3D,0x1F,Read,ACK
3.0727925,85,0x3D,0x01,Read,ACK
3.074944,85,0x3D,0x83,Read,ACK
3.0770945,85,0x3D,0xFF,Read,ACK
3.079245,85,0x3D,0xB5,Read,NAK
3.1371625,86,0x3C,0x03,Write,ACK
3.1418385,87,0x3D,0xFB,Read,ACK
3.1439895,87,0x3D,0xF8,Read,ACK
3.1461405,87,0x3D,0x01,Read,ACK
3.1482915,87,0x3D,0x7E,Read,ACK
3.1504425,87,0x3D,0xFF,Read,ACK
3.1525935,87,0x3D,0xB6,Read,NAK
3.2105085,88,0x3C,0x03,Write,ACK
3.215184,89,0x3D,0xFB,Read,ACK
3.2173345,89,0x3D,0xC3,Read,ACK
3.219486,89,0x3D,0x01,Read,ACK
3.221637,89,0x3D,0x86,Read,ACK
3.2237875,89,0x3D,0xFF,Read,ACK
3.2259385,89,0x3D,0xBC,Read,NAK
3.283853,90,0x3C,0x03,Write,ACK
3.2885285,91,0x3D,0xFB,Read,ACK
3.29068,91,0x3D,0x8E,Read,ACK
3.2928305,91,0x3D,0x01,Read,ACK
3.2949815,91,0x3D,0x86,Read,ACK
3.2971325,91,0x3D,0xFF,Read,ACK
3.357198,92,0x3C,0x03,Write,ACK
3.361873,93,0x3D,0xFB,Read,ACK
3.364024,93,0x3D,0x8D,Read,ACK
3.366175,93,0x3D,0x01,Read,ACK
3.3683255,93,0x3D,0x86,Read,ACK
3.3704765,93,0x3D,0xFF,Read,NAK
3.3723885,93,0x3D,0x60,Read,ACK
3.4305435,94,0x3C,0x03,Write,ACK
3.435219,95,0x3D,0xFB,Read,ACK
3.43737,95,0x3D,0x8E,Read,ACK
3.439521,95,0x3D,0x01,Read,ACK
3.4416715,95,0x3D,0x8E,Read,ACK
3.443823,95,0x3D,0xFF,Read,NAK
3.4457345,95,0x3D,0x63,Read,NAK
3.503888,96,0x3C,0x03,Write,ACK
3.5085635,97,0x3D,0xFB,Read,ACK
3.5107145,97,0x3D,0x69,Read,ACK
3.512865,97,0x3D,0x01,Read,ACK
3.515016,97,0x3D,0x8C,Read,ACK
3.517167,97,0x3D,0xFF,Read,NAK
3.5190785,97,0x3D,0x65,Read,ACK
3.5772285,98,0x3C,0x03,Write,ACK
3.581904,99,0x3D,0xFB,Read,ACK
3.5840545,99,0x3D,0x2D,Read,ACK
3.5862055,99,0x3D,0x01,Read,ACK
3.588356,99,0x3D,0x9B,Read,NAK
3.5902675,99,0x3D,0x7F,Read,NAK
3.5924185,99,0x3D,0x67,Read,NAK
3.6505705,100,0x3C,0x03,Write,ACK
3.655246,101,0x3D,0xFA,Read,ACK
3.6573965,101,0x3D,0xEB,Read,ACK
3.6628935,102,0x69,0x6F,Read,NAK
3.6650445,102,0x69,0xED,Read,ACK
3.723916,103,0x3C,0x03,Write,ACK
3.728592,104,0x3D,0xFA,Read,ACK
3.7307425,104,0x3D,0xEB,Read,ACK
3.7328935,104,0x3D,0x01,Read,ACK
3.735044,104,0x3D,0x9B,Read,ACK
3.7371955,104,0x3D,0xFF,Read,ACK
3.739346,104,0x3D,0xD4,Read,NAK
3.797262,105,0x3C,0x03,Write,ACK
3.8019375,106,0x3D,0xFA,Read,ACK
3.804088,106,0x3D,0xF0,Read,ACK
3.8062395,106,0x3D,0x01,Read,ACK
3.80839,106,0x3D,0x95,Read,ACK
3.810541,106,0x3D,0xFF,Read,ACK
3.812692,106,0x3D,0xD7,Read,NAK
3.870606,107,0x3C,0x01,Write,NAK
3.875281,108,0x3D,0xFA,Read,ACK
3.8774315,108,0x3D,0xF3,Read,ACK
3.8795825,108,0x3D,0x01,Read,ACK
3.8817335,108,0x3D,0x9A,Read,ACK
3.883884,108,0x3D,0xFF,Read,ACK
3.886035,108,0x3D,0xD2,Read,NAK
3.9439485,109,0x3C,0x03,Write,ACK
3.948624,110,0x3D,0xFA,Read,ACK
3.9507745,110,0x3D,0xF9,Read,ACK
3.952926,110,0x3D,0x01,Read,ACK
3.9550765,110,0x3D,0x99,Read,ACK
3.957227,110,0x3D,0xFF,Read,ACK
3.9593785,110,0x3D,0xD2,Read,NAK
4.017292,111,0x3C,0x03,Write,ACK
4.021967,112,0x3D,0xFA,Read,ACK
4.024118,112,0x3D,0xF7,Read,ACK
4.0262685,112,0x3D,0x01,Read,ACK
4.0284195,112,0x3D,0x93,Read,ACK
4.03057,112,0x3D,0xFF,Read,ACK
4.032721,112,0x3D,0xD3,Read,NAK
4.090636,113,0x3C,0x03,Write,ACK
4.0953115,114,0x3D,0xFA,Read,ACK
4.097463,114,0x3D,0xF3,Read,NAK
4.0993745,114,0x3D,0x00,Read,NAK
4.1015255,114,0x3D,0x49,Read,ACK
4.103676,114,0x3D,0x7F,Read,NAK
4.105827,114,0x3D,0x69,Read,ACK
4.16398,115,0x3C,0x03,Write,ACK
4.1686555,116,0x3D,0xFB,Read,ACK
4.170806,116,0x3D,0x01,Read,ACK
4.1729575,116,0x3D,0x01,Read,ACK
4.175108,116,0x3D,0x88,Read,ACK
4.177259,116,0x3D,0xFF,Read,ACK
4.17941,116,0x3D,0xDB,Read,NAK
4.2373265,117,0x3C,0x03,Write,ACK
4.242002,118,0x3D,0xFB,Read,ACK
4.244153,118,0x3D,0x0B,Read,ACK
4.246304,118,0x3D,0x01,Read,ACK
4.2484545,118,0x3D,0x85,Read,ACK
4.2506055,118,0x3D,0xFF,Read,ACK
4.252756,118,0x3D,0xDA,Read,NAK
4.315347,120,0x3D,0xFD,Read,NAK
4.317259,120,0x3D,0x03,Read,ACK
4.31941,120,0x3D,0x00,Read,NAK
4.3215605,120,0x3D,0x41,Read,ACK
4.3237115,120,0x3D,0x7F,Read,NAK
4.3258625,120,0x3D,0x6D,Read,ACK
4.384013,121,0x3C,0x03,Write,ACK
4.388688,122,0x3D,0xFB,Read,ACK
4.390839,122,0x3D,0x0A,Read,ACK
4.3929895,122,0x3D,0x01,Read,ACK
4.3951405,122,0x3D,0x87,Read,ACK
4.3972915,122,0x3D,0xFF,Read,ACK
4.399442,122,0x3D,0xD7,Read,NAK
4.4573565,123,0x3C,0x03,Write,ACK
4.4620325,124,0x3D,0xFB,Read,ACK
4.464183,124,0x3D,0x02,Read,ACK
4.4663345,124,0x3D,0x01,Read,ACK
4.4684855,124,0x3D,0x8D,Read,ACK
4.4706365,124,0x3D,0xFF,Read,ACK
4.4727875,124,0x3D,0xD3,Read,NAK
4.5307015,125,0x3C,0x03,Write,ACK
4.535377,126,0x3D,0xFA,Read,ACK
4.5375275,126,0x3D,0xFE,Read,ACK
4.543502,127,0xA2,0xBF,Write,NAK
4.545653,127,0xA2,0xB5,Write,NAK
4.604041,128,0x3C,0x03,Write,ACK
4.608716,129,0x3D,0xFB,Read,ACK
4.6108665,129,0x3D,0x04,Read,ACK
4.6130175,129,0x3D,0x01,Read,ACK
4.615168,129,0x3D,0x89,Read,ACK
4.6173185,129,0x3D,0xFF,Read,ACK
4.619469,129,0x3D,0xD7,Read,NAK
4.677377,130,0x3C,0x03,Write,ACK
4.682052,131,0x3D,0xFB,Read,ACK
4.684203,131,0x3D,0x05,Read,ACK
4.6863535,131,0x3D,0x01,Read,ACK
4.688504,131,0x3D,0x90,Read,ACK
4.6906545,131,0x3D,0xFF,Read,ACK
4.6928055,131,0x3D,0xD9,Read,NAK
4.750719,132,0x3C,0x03,Write,ACK
4.7553945,133,0x3D,0xFB,Read,ACK
4.757545,133,0x3D,0x12,Read,ACK
4.759696,133,0x3D,0x01,Read,ACK
4.761847,133,0x3D,0x8C,Read,ACK
4.7639975,133,0x3D,0xFF,Read,ACK
4.7661485,133,0x3D,0xDF,Read,NAK
4.8240605,134,0x3C,0x03,Write,ACK
4.8287355,135,0x3D,0xFB,Read,ACK
4.8308865,135,0x3D,0x12,Read,ACK
4.833037,135,0x3D,0x01,Read,ACK
4.835188,135,0x3D,0x8D,Read,ACK
4.837339,135,0x3D,0xFF,Read,ACK
4.8394895,135,0x3D,0xE0,Read,ACK
4.897404,136,0x3C,0x03,Write,ACK
4.9020795,137,0x3D,0xFB,Read,ACK
4.904231,137,0x3D,0x0F,Read,ACK
4.906382,137,0x3D,0x01,Read,ACK
4.908533,137,0x3D,0x91,Read,ACK
4.910684,137,0x3D,0xFF,Read,ACK
4.9128345,137,0x3D,0xDD,Read,NAK
4.9707505,138,0x3C,0x03,Write,ACK
4.975426,139,0x3D,0xFB,Read,ACK
4.9775775,139,0x3D,0x0B,Read,ACK
4.9797285,139,0x3D,0x01,Read,ACK
4.981879,139,0x3D,0x94,Read,ACK
4.98403,139,0x3D,0xFF,Read,ACK
4.986181,139,0x3D,0xDE,Read,NAK
5.044099,140,0x3C,0x03,Write,ACK
5.0487745,141,0x3D,0xFB,Read,ACK
5.0509255,141,0x3D,0x14,Read,ACK
5.053076,141,0x3D,0x01,Read,ACK
5.0552265,141,0x3D,0x92,Read,ACK
5.0573775,141,0x3D,0xFF,Read,ACK
5.059529,141,0x3D,0xDC,Read,NAK
5.117446,142,0x3C,0x03,Write,ACK
5.124272,143,0xFB,0x11,Read,ACK
5.126423,143,0xFB,0x01,Read,ACK
5.128574,143,0xFB,0x90,Read,ACK
5.1307245,143,0xFB,0xFF,Read,ACK
5.1328755,143,0xFB,0xE0,Read,NAK
5.1907905,144,0x3C,0x03,Write,ACK
5.195466,145,0x3D,0xFB,Read,ACK
5.1976165,145,0x3D,0x15,Read,ACK
5.1997675,145,0x3D,0x01,Read,ACK
5.2019185,145,0x3D,0x90,Read,ACK
5.2040695,145,0x3D,0xFF,Read,ACK
5.20622,145,0x3D,0xE5,Read,NAK
5.264136,146,0x3C,0x03,Write,ACK
5.268811,147,0x3D,0xFB,Read,ACK
5.2709615,147,0x3D,0x10,Read,ACK
5.2731125,147,0x3D,0x01,Read,ACK
5.2752635,147,0x3D,0x93,Read,ACK
5.2774145,147,0x3D,0xFF,Read,ACK
5.279565,147,0x3D,0xE5,Read,NAK
5.3374805,148,0x3C,0x03,Write,ACK
5.342156,149,0x3D,0xFB,Read,ACK
5.344307,149,0x3D,0x14,Read,ACK
5.346458,149,0x3D,0x01,Read,ACK
5.3486085,149,0x3D,0x89,Read,ACK
5.3507595,149,0x3D,0xFF,Read,ACK
5.352911,149,0x3D,0xEC,Read,NAK
5.410825,150,0x3C,0x03,Write,ACK
5.4155,151,0x3D,0xFB,Read,ACK
5.417651,151,0x3D,0x18,Read,ACK
5.419802,151,0x3D,0x01,Read,ACK
5.4219525,151,0x3D,0x8B,Read,ACK
5.4241035,151,0x3D,0xFF,Read,ACK
5.426254,151,0x3D,0xE6,Read,NAK
5.4841715,152,0x3C,0x03,Write,ACK
5.4888465,153,0x3D,0xFB,Read,ACK
5.4909975,153,0x3D,0x1B,Read,ACK
5.493148,153,0x3D,0x01,Read,ACK
5.495299,153,0x3D,0x87,Read,ACK
5.49745,153,0x3D,0xFF,Read,ACK
5.499601,153,0x3D,0xEB,Read,NAK
5.5575165,154,0x3C,0x03,Write,ACK
5.562192,155,0x3D,0xFB,Read,ACK
5.5643425,155,0x3D,0x18,Read,ACK
5.566494,155,0x3D,0x01,Read,ACK
5.568645,155,0x3D,0x88,Read,ACK
5.5707955,155,0x3D,0xFF,Read,ACK
5.572947,155,0x3D,0xF0,Read,NAK
5.630863,156,0x3C,0x03,Write,ACK
5.6355385,157,0x3D,0xFB,Read,ACK
5.637689,157,0x3D,0x15,Read,ACK
5.63984,157,0x3D,0x01,Read,ACK
5.641991,157,0x3D,0x8A,Read,ACK
5.6441415,157,0x3D,0xFF,Read,ACK
5.646292,157,0x3D,0xEE,Read,NAK
5.7042055,158,0x3C,0x03,Write,ACK
5.708881,159,0x3D,0xFB,Read,ACK
5.711032,159,0x3D,0x10,Read,ACK
5.713183,159,0x3D,0x01,Read,ACK
5.715334,159,0x3D,0x87,Read,ACK
5.717485,159,0x3D,0xFF,Read,ACK
5.7196355,159,0x3D,0xEE,Read,NAK
5.7773105,160,0x3C,0x01,Write,NAK
5.7822245,161,0x3D,0xFB,Read,ACK
5.784375,161,0x3D,0x0D,Read,ACK
5.786526,161,0x3D,0x01,Read,ACK
5.788677,161,0x3D,0x83,Read,ACK
5.7908275,161,0x3D,0xFF,Read,ACK
5.7929785,161,0x3D,0xEB,Read,NAK
5.8508935,162,0x3C,0x03,Write,ACK
5.855569,163,0x3D,0xFB,Read,ACK
5.85772,163,0x3D,0x0D,Read,ACK
5.8598705,163,0x3D,0x01,Read,ACK
5.8620215,163,0x3D,0x83,Read,ACK
5.8641725,163,0x3D,0xFF,Read,ACK
5.866323,163,0x3D,0xEB,Read,NAK
5.924236,164,0x3C,0x03,Write,ACK
5.928911,,0x3D,0xFB,Read,ACK
